T3BD8 000:003.055   SEGGER J-Link V7.88d Log File
T3BD8 000:003.289   DLL Compiled: May 24 2023 15:18:11
T3BD8 000:003.319   Logging started @ 2023-08-07 08:06
T3BD8 000:003.348 - 3.362ms
T3BD8 000:003.392 JLINK_GetDLLVersion()
T3BD8 000:003.424 - 0.046ms returns 78804
T3BD8 000:005.300 JLINK_OpenEx(...)
T3BD8 000:034.785   Firmware: J-Link OB-S124 compiled May 10 2023 09:55:15
T3BD8 000:035.583   Firmware: J-Link OB-S124 compiled May 10 2023 09:55:15
T3BD8 000:063.611   Hardware: V1.00
T3BD8 000:063.708   S/N: 831919865
T3BD8 000:063.769   OEM: SEGGER
T3BD8 000:063.829   Feature(s): None
T3BD8 000:065.529   USB speed mode: Full speed (12 MBit/s)
T3BD8 000:066.334   TELNET listener socket opened on port 19021
T3BD8 000:066.710   WEBSRV WEBSRV_Init(): Starting webserver thread(s)
T3BD8 000:068.891   WEBSRV Failed to put socket into listener state (port 19080)
T3BD8 000:069.261   WEBSRV Webserver running on local port 19081
T3BD8 000:127.111 - 121.906ms returns "O.K."
T3BD8 000:127.440 JLINK_ExecCommand("ProjectFile=C:\Users\tuan.nguyen-minh\e2_studio\workspace\iic_dtc_master_tx/iic_dtc_master_tx.elf (2).jlink", ...). 
T3BD8 000:153.123 - 25.726ms returns 0x00
T3BD8 000:154.538 JLINK_ExecCommand("device=R7FA6M2AF", ...). 
T3BD8 000:163.611   Device "R7FA6M2AF" selected.
T3BD8 000:167.557 - 13.013ms returns 0x00
T3BD8 000:167.683 JLINK_ExecCommand("SetCPUConnectIDCODE = FFFFFFFFFFFFFFFFFFFFFFFFFFFFFFFF", ...). 
T3BD8 000:167.746 - 0.033ms returns 0x00
T3BD8 000:167.793 JLINK_TIF_GetAvailable(...)
T3BD8 000:168.104 - 0.337ms
T3BD8 000:168.153 JLINK_TIF_Select(JLINKARM_TIF_SWD)
T3BD8 000:169.098 - 0.969ms returns 0x00
T3BD8 000:169.147 JLINK_SetSpeed(4000)
T3BD8 000:169.342 - 0.218ms
T3BD8 000:169.403 JLINK_SetEndian(ARM_ENDIAN_LITTLE)
T3BD8 000:169.432 - 0.042ms returns 0
T3BD8 000:169.465 JLINK_SetInitRegsOnReset(OFF)
T3BD8 000:169.495 - 0.043ms returns 1
T3BD8 000:169.525 JLINK_SetResetType(JLINKARM_RESET_TYPE_NO_RESET)
T3BD8 000:169.553 - 0.040ms returns JLINKARM_RESET_TYPE_NORMAL
T3BD8 000:169.584 JLINK_ExecCommand("EnableFlashBPs", ...). 
T3BD8 000:169.616 - 0.014ms returns 0x00
T3BD8 000:169.647 JLINK_ExecCommand("SetAllowFlashCache = 1", ...). 
T3BD8 000:169.679 - 0.014ms returns 0x01
T3BD8 000:169.710 JLINK_ExecCommand("SetRestartOnClose = 0", ...). 
T3BD8 000:169.742 - 0.014ms returns 0x01
T3BD8 000:169.774 JLINK_EnableSoftBPs(ON)
T3BD8 000:169.801 - 0.041ms
T3BD8 000:169.832 JLINK_Connect()
T3BD8 000:170.155   InitTarget() start
T3BD8 000:170.218    J-Link Script File: Executing InitTarget()
T3BD8 000:170.269   Identifying target device...
T3BD8 000:170.312   SWD selected. Executing JTAG -> SWD switching sequence...
T3BD8 000:171.055   Initializing DAP...
T3BD8 000:176.064   Low power mode detected. Waking device from low power mode.
T3BD8 000:180.117   InitTarget() end - Took 9.89ms
T3BD8 000:181.157   Found SW-DP with ID 0x5BA02477
T3BD8 000:185.131   DPIDR: 0x5BA02477
T3BD8 000:185.281   CoreSight SoC-400 or earlier
T3BD8 000:185.360   Scanning AP map to find all available APs
T3BD8 000:187.207   AP[2]: Stopped AP scan as end of AP map has been reached
T3BD8 000:187.339   AP[0]: AHB-AP (IDR: 0x24770011)
T3BD8 000:187.390   AP[1]: APB-AP (IDR: 0x44770002)
T3BD8 000:187.440   Iterating through AP map to find AHB-AP to use
T3BD8 000:189.159   AP[0]: Core found
T3BD8 000:189.237   AP[0]: AHB-AP ROM base: 0xE00FF000
T3BD8 000:190.098   CPUID register: 0x410FC241. Implementer code: 0x41 (ARM)
T3BD8 000:190.229   Found Cortex-M4 r0p1, Little endian.
T3BD8 000:191.388   -- Max. mem block: 0x00001AE0
T3BD8 000:193.002   CPU_ReadMem(4 bytes @ 0xE000EDF0)
T3BD8 000:193.724   CPU_ReadMem(4 bytes @ 0xE0002000)
T3BD8 000:194.480   FPUnit: 6 code (BP) slots and 2 literal slots
T3BD8 000:194.555   CPU_ReadMem(4 bytes @ 0xE000EDFC)
T3BD8 000:195.306   CPU_ReadMem(4 bytes @ 0xE0001000)
T3BD8 000:196.069   CPU_WriteMem(4 bytes @ 0xE0001000)
T3BD8 000:196.865   CPU_ReadMem(4 bytes @ 0xE000ED88)
T3BD8 000:197.518   CPU_WriteMem(4 bytes @ 0xE000ED88)
T3BD8 000:198.328   CPU_ReadMem(4 bytes @ 0xE000ED88)
T3BD8 000:199.169   CPU_WriteMem(4 bytes @ 0xE000ED88)
T3BD8 000:199.969   CoreSight components:
T3BD8 000:200.037   ROMTbl[0] @ E00FF000
T3BD8 000:200.086   CPU_ReadMem(64 bytes @ 0xE00FF000)
T3BD8 000:201.547   CPU_ReadMem(32 bytes @ 0xE000EFE0)
T3BD8 000:202.654   [0][0]: E000E000 CID B105E00D PID 000BB00C SCS-M7
T3BD8 000:202.717   CPU_ReadMem(32 bytes @ 0xE0001FE0)
T3BD8 000:203.807   [0][1]: E0001000 CID B105E00D PID 003BB002 DWT
T3BD8 000:203.870   CPU_ReadMem(32 bytes @ 0xE0002FE0)
T3BD8 000:204.932   [0][2]: E0002000 CID B105E00D PID 002BB003 FPB
T3BD8 000:204.993   CPU_ReadMem(32 bytes @ 0xE0000FE0)
T3BD8 000:206.053   [0][3]: E0000000 CID B105E00D PID 003BB001 ITM
T3BD8 000:206.115   CPU_ReadMem(32 bytes @ 0xE0040FE0)
T3BD8 000:207.127   [0][4]: E0040000 CID B105900D PID 000BB9A1 TPIU
T3BD8 000:207.444   CPU_ReadMem(32 bytes @ 0xE0041FE0)
T3BD8 000:208.792   [0][5]: E0041000 CID B105900D PID 000BB925 ETM
T3BD8 000:208.857   CPU_ReadMem(32 bytes @ 0xE0042FE0)
T3BD8 000:209.930   [0][6]: E0042000 CID B105900D PID 002BB908 CSTF
T3BD8 000:209.993   CPU_ReadMem(32 bytes @ 0xE0043FE0)
T3BD8 000:211.003   [0][7]: E0043000 CID B105900D PID 001BB961 TMC
T3BD8 000:211.089   CPU_ReadMem(32 bytes @ 0xE0044FE0)
T3BD8 000:212.159   [0][8]: E0044000 CID B105F00D PID 001BB101 TSG
T3BD8 000:212.452 - 42.644ms returns 0x00
T3BD8 000:212.510 JLINK_ResetPullsRESET(ON)
T3BD8 000:212.544 - 0.049ms
T3BD8 000:212.586 JLINK_Halt()
T3BD8 000:217.836 - 5.282ms returns 0x00
T3BD8 000:217.900 JLINK_IsHalted()
T3BD8 000:217.940 - 0.056ms returns TRUE
T3BD8 000:217.980 JLINK_Reset()
T3BD8 000:218.059   CPU_WriteMem(4 bytes @ 0xE000EDF0)
T3BD8 000:219.036   CPU_WriteMem(4 bytes @ 0xE000EDFC)
T3BD8 000:219.939   Reset: Halt core after reset via DEMCR.VC_CORERESET.
T3BD8 000:220.979   Reset: Reset device via AIRCR.SYSRESETREQ.
T3BD8 000:221.064   CPU_WriteMem(4 bytes @ 0xE000ED0C)
T3BD8 000:275.731   CPU_ReadMem(4 bytes @ 0xE000EDF0)
T3BD8 000:276.798   CPU_ReadMem(4 bytes @ 0xE000EDF0)
T3BD8 000:277.795   CPU_WriteMem(4 bytes @ 0xE000EDFC)
T3BD8 000:284.230   CPU_ReadMem(4 bytes @ 0xE000EDF0)
T3BD8 000:291.044   CPU_WriteMem(4 bytes @ 0xE0002000)
T3BD8 000:291.989   CPU_ReadMem(4 bytes @ 0xE000EDFC)
T3BD8 000:292.727   CPU_ReadMem(4 bytes @ 0xE0001000)
T3BD8 000:293.501 - 75.556ms
T3BD8 000:293.570 JLINK_SetEndian(ARM_ENDIAN_LITTLE)
T3BD8 000:293.604 - 0.049ms returns 0
T3BD8 000:293.753 JLINK_ReadMemEx(0x407FB19C, 0x8 Bytes, Flags = 0x00000004)
T3BD8 000:293.816   CPU_ReadMem(8 bytes @ 0x407FB19C)
T3BD8 000:294.531   Data:  00 70 00 01 00 00 00 00
T3BD8 000:294.598 - 0.861ms returns 8 (0x8)
T3BD8 000:294.660 JLINK_ReadMem(0x01007024, 0x10 Bytes, ...)
T3BD8 000:294.720   CPU_ReadMem(16 bytes @ 0x01007024)
T3BD8 000:295.515   Data:  52 37 46 41 36 4D 32 41 46 33 43 46 42 20 20 20
T3BD8 000:295.609 - 0.972ms returns 0
T3BD8 000:295.693 JLINK_IsHalted()
T3BD8 000:295.748 - 0.079ms returns TRUE
T3BD8 000:296.450 JLINK_MeasureCPUSpeed(RAMAddr = 0xFFFFFFFF)
T3BD8 000:296.561   CPU_ReadMem(16 bytes @ 0x1FFE0000)
T3BD8 000:297.707   CPU_ReadMem(64 bytes @ 0x1FFE0000)
T3BD8 000:299.518    -- Updating C cache (64 bytes @ 0x1FFE0000)
T3BD8 000:299.613    -- Read from C cache (6 bytes @ 0x1FFE0000)
T3BD8 000:299.667   CPU_ReadMem(4 bytes @ 0xE000ED90)
T3BD8 000:300.750   CPU_ReadMem(4 bytes @ 0xE000ED94)
T3BD8 000:301.579   CPU_WriteMem(16 bytes @ 0x1FFE0000)
T3BD8 000:302.939   CPU_WriteMem(6 bytes @ 0x1FFE0000)
T3BD8 000:304.154   CPU_ReadMem(64 bytes @ 0x1FFE0000)
T3BD8 000:306.103    -- Updating C cache (64 bytes @ 0x1FFE0000)
T3BD8 000:306.200    -- Read from C cache (6 bytes @ 0x1FFE0000)
T3BD8 000:306.262   CPU_WriteMem(4 bytes @ 0xE0002008)
T3BD8 000:306.316   CPU_WriteMem(4 bytes @ 0xE000200C)
T3BD8 000:306.366   CPU_WriteMem(4 bytes @ 0xE0002010)
T3BD8 000:306.417   CPU_WriteMem(4 bytes @ 0xE0002014)
T3BD8 000:306.467   CPU_WriteMem(4 bytes @ 0xE0002018)
T3BD8 000:306.517   CPU_WriteMem(4 bytes @ 0xE000201C)
T3BD8 000:320.222   CPU_WriteMem(4 bytes @ 0xE0002008)
T3BD8 000:321.074   CPU_WriteMem(4 bytes @ 0xE000200C)
T3BD8 000:321.837   CPU_WriteMem(4 bytes @ 0xE0002010)
T3BD8 000:322.610   CPU_WriteMem(4 bytes @ 0xE0002014)
T3BD8 000:323.795   CPU_WriteMem(4 bytes @ 0xE0002018)
T3BD8 000:324.771   CPU_WriteMem(4 bytes @ 0xE000201C)
T3BD8 000:355.257   CPU_WriteMem(6 bytes @ 0x1FFE0000)
T3BD8 000:356.320   ClockFreq: 2080650 Hz
T3BD8 000:356.429 - 59.996ms returns 2080650
T3BD8 000:356.486 JLINK_ReadReg(XPSR)
T3BD8 000:356.535 - 0.070ms returns 0x01000000
T3DBC 000:434.171 JLINK_ReadReg(XPSR)
T3DBC 000:434.230 - 0.073ms returns 0x01000000
T3DBC 000:462.981 JLINK_ReadReg(XPSR)
T3DBC 000:463.054 - 0.090ms returns 0x01000000
T3DBC 000:856.352 JLINK_ReadReg(XPSR)
T3DBC 000:857.751 - 1.450ms returns 0x01000000
T3DBC 000:930.523 JLINK_SetEndian(ARM_ENDIAN_LITTLE)
T3DBC 000:930.591 - 0.082ms returns 0
T3DBC 000:930.843 JLINK_BeginDownload(Flags = 0x00000000)
T3DBC 000:930.896 - 0.072ms
T3DBC 000:939.809 JLINK_WriteMem(0x00000000, 0xBC0 Bytes, ...)
T3DBC 000:939.873   Data:  50 08 FE 1F DD 20 00 00 C5 1F 00 00 D9 20 00 00 ...
T3DBC 000:940.370   completely In flash
T3DBC 000:940.423 - 0.626ms returns 0xBC0
T3DBC 000:942.281 JLINK_WriteMem(0x00000BC0, 0xBA0 Bytes, ...)
T3DBC 000:942.368   Data:  80 F8 23 60 1F 22 AC 78 1A 70 5F 22 1A 70 DF 22 ...
T3DBC 000:942.479   completely In flash
T3DBC 000:942.544 - 0.283ms returns 0xBA0
T3DBC 000:942.932 JLINK_WriteMem(0x00001760, 0xBA0 Bytes, ...)
T3DBC 000:943.000   Data:  2D D0 02 2B 21 D0 01 2B 2F D0 21 69 23 6A 62 69 ...
T3DBC 000:943.071   completely In flash
T3DBC 000:943.113 - 0.194ms returns 0xBA0
T3DBC 000:943.427 JLINK_WriteMem(0x00002300, 0x174 Bytes, ...)
T3DBC 000:943.494   Data:  05 02 00 00 10 04 01 07 06 02 00 00 00 00 01 00 ...
T3DBC 000:943.539   completely In flash
T3DBC 000:943.578 - 0.170ms returns 0x174
T3DBC 000:943.938 JLINK_WriteMem(0x00002474, 0x24 Bytes, ...)
T3DBC 000:944.007   Data:  03 00 00 00 A0 20 30 80 50 00 00 00 00 00 10 08 ...
T3DBC 000:944.098   completely In flash
T3DBC 000:944.152 - 0.227ms returns 0x24
T3DBC 000:944.637 JLINK_WriteMem(0x0100A150, 0x10 Bytes, ...)
T3DBC 000:944.689   Data:  FF FF FF FF FF FF FF FF FF FF FF FF FF FF FF FF
T3DBC 000:945.232   completely In flash
T3DBC 000:945.284 - 0.661ms returns 0x10
T3DBC 000:963.042 JLINK_EndDownload()
T3DBC 000:963.444   CPU_ReadMem(4 bytes @ 0xE000ED90)
T3DBC 000:964.052   CPU_ReadMem(4 bytes @ 0xE000ED94)
T3DBC 000:964.683    -- --------------------------------------
T3DBC 000:964.746   Flash bank @ 0x0100A150: Default: L2 verify disabled because algorithm performs L1 verify
T3DBC 000:964.789    -- Start of determining dirty areas in flash cache
T3DBC 000:964.833    -- Filling invalid ranges in sector buffer (flash cache) for sector @ 0x0100A150 if necessary
T3DBC 000:964.895    -- End of determining dirty areas
T3DBC 000:964.936    -- Start of preparing flash programming
T3DBC 000:965.014    -- Calculating RAM usage
T3DBC 000:965.196    -- RAM usage = 3572 Bytes
T3DBC 000:965.237    -- Preserving CPU registers
T3DBC 000:965.307    -- Determining CPU clock frequency
T3DBC 001:008.625    -- Preparing target
T3DBC 001:010.269    -- Preserving target RAM temporarily used for programming
T3DBC 001:051.811    -- Downloading RAMCode
T3DBC 001:098.778    -- Preparing RAMCode
T3DBC 001:112.832    -- CPU frequency = 100000 kHz
T3DBC 001:112.942    -- End of preparing flash programming
T3DBC 001:113.250   Looking for J-Link GUI Server exe at: C:\Users\tuan.nguyen-minh\.eclipse\com.renesas.platform_1435879475\DebugComp\RA\ARM\Segger_v7.88.4\JLinkGUIServer.exe
T3DBC 001:113.524   Looking for J-Link GUI Server exe at: \JLinkGUIServer.exe
T3DBC 001:414.052   Failed to connect to J-Link GUI Server.
T3DBC 001:452.206    -- CPU is running at 100000 kHz.
T3DBC 001:452.344    -- Start of comparing flash
T3DBC 001:452.417    -- CRC check was estimated as fastest method
T3DBC 001:452.487    -- Comparing range 0x100A150 - 0x100A16F (1 Sector, 32 Bytes), using multi-block CRC calculation
T3DBC 001:456.461    -- All CRCs match
T3DBC 001:456.651    -- Comparing range 0x100A150 - 0x100A16F (1 Sector, 32 Bytes), using alternative multi-block CRC calculation
T3DBC 001:459.910    -- All CRCs match
T3DBC 001:460.175    -- End of comparing flash
T3DBC 001:460.222    -- Start of erasing sectors
T3DBC 001:460.263    -- End of erasing sectors
T3DBC 001:460.302    -- Start of flash programming
T3DBC 001:460.348    -- End of flash programming
T3DBC 001:460.390    -- Start of restoring
T3DBC 001:460.439    -- Restoring RAMCode
T3DBC 001:467.869    -- Restoring target memory
T3DBC 001:504.220    -- Restore target
T3DBC 001:504.320    -- Restoring CPU registers
T3DBC 001:504.390    -- End of restoring
T3DBC 001:504.432    -- Bank 0 @ 0x0100A150: Skipped. Contents already match
T3DBC 001:504.472    -- Bank 0 @ 0x0100A150: Skipped. Contents already match
T3DBC 001:511.862    -- --------------------------------------
T3DBC 001:511.979   Flash bank @ 0x00000000: Default: L2 verify disabled because algorithm performs L1 verify
T3DBC 001:512.040    -- Start of determining dirty areas in flash cache
T3DBC 001:512.097    -- Filling invalid ranges in sector buffer (flash cache) for sector @ 0x00000000 if necessary
T3DBC 001:512.184    -- Filling invalid ranges in sector buffer (flash cache) for sector @ 0x00002000 if necessary
T3DBC 001:512.545    -- End of determining dirty areas
T3DBC 001:512.614    -- Start of preparing flash programming
T3DBC 001:512.674    -- Calculating RAM usage
T3DBC 001:512.750    -- RAM usage = 3476 Bytes
T3DBC 001:512.797    -- Preserving CPU registers
T3DBC 001:512.854    -- Determining CPU clock frequency
T3DBC 001:557.454    -- Preparing target
T3DBC 001:558.922    -- Preserving target RAM temporarily used for programming
T3DBC 001:599.626    -- Downloading RAMCode
T3DBC 001:647.077    -- Preparing RAMCode
T3DBC 001:660.209    -- CPU frequency = 100000 kHz
T3DBC 001:661.169    -- End of preparing flash programming
T3DBC 001:693.865    -- CPU is running at 100000 kHz.
T3DBC 001:694.824    -- Start of comparing flash
T3DBC 001:696.051    -- CRC check was estimated as fastest method
T3DBC 001:696.229    -- Comparing range 0x0000 - 0x3FFF (2 Sectors, 16 KB), using multi-block CRC calculation
T3DBC 001:702.716    -- CRC does not match for sector 1
T3DBC 001:702.799    -- Comparing range 0x0000 - 0x1FFF (1 Sector, 8 KB), using alternative multi-block CRC calculation
T3DBC 001:707.291    -- All CRCs match
T3DBC 001:707.371    -- End of comparing flash
T3DBC 001:707.435    -- Start of erasing sectors
T3DBC 001:707.480    -- Erasing range 0x00002000 - 0x00003FFF (  1 Sector, 8 KB)
T3DBC 001:748.360    -- End of erasing sectors
T3DBC 001:748.477    -- Start of flash programming
T3DBC 001:748.545    -- Programming range 0x00002000 - 0x00003FFF (  1 Sector, 8 KB)
T3DBC 001:762.954    -- End of flash programming
T3DBC 001:763.038    -- 0x2000 - 0x3FFF (  1 Sector, 8 KiB)
T3DBC 001:763.081    -- Start of restoring
T3DBC 001:763.125    -- Restoring RAMCode
T3DBC 001:779.506    -- Restoring target memory
T3DBC 001:814.939    -- Restore target
T3DBC 001:815.071    -- Restoring CPU registers
T3DBC 001:815.185    -- End of restoring
T3DBC 001:815.262    -- Bank 1 @ 0x00000000: 1 range affected (8192 bytes)
T3DBC 001:815.332    -- Total: 0.302s (Prepare: 0.182s, Compare: 0.012s, Erase: 0.041s, Program & Verify: 0.024s, Restore: 0.042s)
T3DBC 001:815.399    -- Program & Verify speed: 333 KB/s
T3DBC 001:837.387 - 874.395ms returns 8192 (0x2000)
T3DBC 001:838.135 JLINK_WriteReg(R15 (PC), 0x000020DC)
T3DBC 001:838.207 - 0.094ms returns 0
T3DBC 001:838.261 JLINK_WriteReg(XPSR, 0x01000000)
T3DBC 001:838.310 - 0.071ms returns 0
T3DBC 001:838.363 JLINK_ResetPullsRESET(ON)
T3DBC 001:838.403 - 0.060ms
T3DBC 001:838.447 JLINK_Halt()
T3DBC 001:838.486 - 0.059ms returns 0x00
T3DBC 001:838.531 JLINK_IsHalted()
T3DBC 001:838.574 - 0.064ms returns TRUE
T3DBC 001:838.622 JLINK_Reset()
T3DBC 001:838.676   CPU_WriteMem(4 bytes @ 0xE000EDF0)
T3DBC 001:839.498   CPU_WriteMem(4 bytes @ 0xE000EDFC)
T3DBC 001:840.476   Reset: Halt core after reset via DEMCR.VC_CORERESET.
T3DBC 001:841.488   Reset: Reset device via AIRCR.SYSRESETREQ.
T3DBC 001:841.595   CPU_WriteMem(4 bytes @ 0xE000ED0C)
T3DBC 001:896.788   CPU_ReadMem(4 bytes @ 0xE000EDF0)
T3DBC 001:897.777   CPU_ReadMem(4 bytes @ 0xE000EDF0)
T3DBC 001:898.893   CPU_WriteMem(4 bytes @ 0xE000EDFC)
T3DBC 001:905.892   CPU_ReadMem(4 bytes @ 0xE000EDF0)
T3DBC 001:911.939   CPU_WriteMem(4 bytes @ 0xE0002000)
T3DBC 001:912.942   CPU_ReadMem(4 bytes @ 0xE000EDFC)
T3DBC 001:914.028   CPU_ReadMem(4 bytes @ 0xE0001000)
T3DBC 001:915.010 - 76.446ms
T3DBC 001:915.130 JLINK_SetEndian(ARM_ENDIAN_LITTLE)
T3DBC 001:915.163 - 0.052ms returns 0
T3DBC 001:916.264 JLINK_ResetPullsRESET(ON)
T3DBC 001:916.345 - 0.101ms
T3DBC 001:916.389 JLINK_Halt()
T3DBC 001:916.430 - 0.060ms returns 0x00
T3DBC 001:916.473 JLINK_IsHalted()
T3DBC 001:916.513 - 0.059ms returns TRUE
T3DBC 001:916.556 JLINK_Reset()
T3DBC 001:916.634   CPU_WriteMem(4 bytes @ 0xE000EDF0)
T3DBC 001:917.382   CPU_WriteMem(4 bytes @ 0xE000EDFC)
T3DBC 001:918.090   Reset: Halt core after reset via DEMCR.VC_CORERESET.
T3DBC 001:918.965   Reset: Reset device via AIRCR.SYSRESETREQ.
T3DBC 001:919.063   CPU_WriteMem(4 bytes @ 0xE000ED0C)
T3DBC 001:975.229   CPU_ReadMem(4 bytes @ 0xE000EDF0)
T3DBC 001:975.952   CPU_ReadMem(4 bytes @ 0xE000EDF0)
T3DBC 001:976.891   CPU_WriteMem(4 bytes @ 0xE000EDFC)
T3DBC 001:983.777   CPU_ReadMem(4 bytes @ 0xE000EDF0)
T3DBC 001:989.817   CPU_WriteMem(4 bytes @ 0xE0002000)
T3DBC 001:990.523   CPU_ReadMem(4 bytes @ 0xE000EDFC)
T3DBC 001:991.213   CPU_ReadMem(4 bytes @ 0xE0001000)
T3DBC 001:991.850 - 75.344ms
T3DBC 001:991.941 JLINK_SetEndian(ARM_ENDIAN_LITTLE)
T3DBC 001:991.971 - 0.043ms returns 0
T3DBC 001:998.084 JLINK_ReadMem(0x40052ED0, 0x130 Bytes, ...)
T3DBC 001:998.162   CPU_ReadMem(304 bytes @ 0x40052ED0)
T3DBC 002:002.732   Data:  00 00 00 00 00 00 00 00 00 00 00 00 00 00 00 00 ...
T3DBC 002:002.841 - 4.783ms returns 0
T3DBC 002:002.906 JLINK_ReadMemEx(0x40053000, 0x1 Bytes, Flags = 0x00000001)
T3DBC 002:002.972   CPU_ReadMem(1 bytes @ 0x40053000)
T3DBC 002:003.600   Data:  FF
T3DBC 002:003.660 - 0.767ms returns 1 (0x1)
T3DBC 002:003.696 JLINK_ReadMemEx(0x40053001, 0x1 Bytes, Flags = 0x00000001)
T3DBC 002:003.731   CPU_ReadMem(1 bytes @ 0x40053001)
T3DBC 002:004.342   Data:  FF
T3DBC 002:004.398 - 0.715ms returns 1 (0x1)
T3DBC 002:004.433 JLINK_ReadMemEx(0x40053002, 0x1 Bytes, Flags = 0x00000001)
T3DBC 002:004.467   CPU_ReadMem(1 bytes @ 0x40053002)
T3DBC 002:005.091   Data:  FF
T3DBC 002:005.147 - 0.727ms returns 1 (0x1)
T3DBC 002:005.182 JLINK_ReadMemEx(0x40053003, 0x1 Bytes, Flags = 0x00000001)
T3DBC 002:005.215   CPU_ReadMem(1 bytes @ 0x40053003)
T3DBC 002:005.837   Data:  FF
T3DBC 002:005.894 - 0.725ms returns 1 (0x1)
T3DBC 002:005.929 JLINK_ReadMemEx(0x40053004, 0x1 Bytes, Flags = 0x00000001)
T3DBC 002:005.964   CPU_ReadMem(1 bytes @ 0x40053004)
T3DBC 002:006.566   Data:  FF
T3DBC 002:006.640 - 0.724ms returns 1 (0x1)
T3DBC 002:006.674 JLINK_ReadMemEx(0x40053005, 0x1 Bytes, Flags = 0x00000001)
T3DBC 002:006.707   CPU_ReadMem(1 bytes @ 0x40053005)
T3DBC 002:007.317   Data:  FF
T3DBC 002:007.374 - 0.714ms returns 1 (0x1)
T3DBC 002:007.409 JLINK_ReadMemEx(0x40053006, 0x1 Bytes, Flags = 0x00000001)
T3DBC 002:007.443   CPU_ReadMem(1 bytes @ 0x40053006)
T3DBC 002:008.226   Data:  FF
T3DBC 002:008.299 - 0.902ms returns 1 (0x1)
T3DBC 002:008.333 JLINK_ReadMemEx(0x40053007, 0x1 Bytes, Flags = 0x00000001)
T3DBC 002:008.368   CPU_ReadMem(1 bytes @ 0x40053007)
T3DBC 002:009.079   Data:  FF
T3DBC 002:009.147 - 0.827ms returns 1 (0x1)
T3DBC 002:009.185 JLINK_ReadMemEx(0x40053008, 0x1 Bytes, Flags = 0x00000001)
T3DBC 002:009.241   CPU_ReadMem(1 bytes @ 0x40053008)
T3DBC 002:010.086   Data:  FF
T3DBC 002:010.158 - 0.986ms returns 1 (0x1)
T3DBC 002:010.195 JLINK_ReadMemEx(0x40053009, 0x1 Bytes, Flags = 0x00000001)
T3DBC 002:010.231   CPU_ReadMem(1 bytes @ 0x40053009)
T3DBC 002:010.951   Data:  FF
T3DBC 002:011.087 - 0.908ms returns 1 (0x1)
T3DBC 002:011.131 JLINK_ReadMemEx(0x4005300A, 0x1 Bytes, Flags = 0x00000001)
T3DBC 002:011.175   CPU_ReadMem(1 bytes @ 0x4005300A)
T3DBC 002:011.921   Data:  FF
T3DBC 002:011.997 - 0.879ms returns 1 (0x1)
T3DBC 002:012.035 JLINK_ReadMemEx(0x4005300B, 0x1 Bytes, Flags = 0x00000001)
T3DBC 002:012.071   CPU_ReadMem(1 bytes @ 0x4005300B)
T3DBC 002:013.027   Data:  FF
T3DBC 002:013.119 - 1.097ms returns 1 (0x1)
T3DBC 002:013.158 JLINK_ReadMemEx(0x4005300C, 0x1 Bytes, Flags = 0x00000001)
T3DBC 002:013.195   CPU_ReadMem(1 bytes @ 0x4005300C)
T3DBC 002:014.264   Data:  FF
T3DBC 002:014.361 - 1.216ms returns 1 (0x1)
T3DBC 002:014.399 JLINK_ReadMemEx(0x4005300D, 0x1 Bytes, Flags = 0x00000001)
T3DBC 002:014.435   CPU_ReadMem(1 bytes @ 0x4005300D)
T3DBC 002:015.429   Data:  FF
T3DBC 002:015.511 - 1.126ms returns 1 (0x1)
T3DBC 002:015.550 JLINK_ReadMemEx(0x4005300E, 0x1 Bytes, Flags = 0x00000001)
T3DBC 002:015.587   CPU_ReadMem(1 bytes @ 0x4005300E)
T3DBC 002:016.358   Data:  FF
T3DBC 002:016.444 - 0.907ms returns 1 (0x1)
T3DBC 002:016.483 JLINK_ReadMemEx(0x4005300F, 0x1 Bytes, Flags = 0x00000001)
T3DBC 002:016.532   CPU_ReadMem(1 bytes @ 0x4005300F)
T3DBC 002:017.267   Data:  FF
T3DBC 002:017.318 - 0.848ms returns 1 (0x1)
T3DBC 002:017.373 JLINK_ReadMemEx(0x40053010, 0x1 Bytes, Flags = 0x00000001)
T3DBC 002:017.407   CPU_ReadMem(1 bytes @ 0x40053010)
T3DBC 002:018.100   Data:  FF
T3DBC 002:018.182 - 0.822ms returns 1 (0x1)
T3DBC 002:018.269 JLINK_ReadMemEx(0x40053011, 0x1 Bytes, Flags = 0x00000001)
T3DBC 002:018.345   CPU_ReadMem(1 bytes @ 0x40053011)
T3DBC 002:019.229   Data:  FF
T3DBC 002:019.376 - 1.125ms returns 1 (0x1)
T3DBC 002:019.428 JLINK_ReadMemEx(0x40053012, 0x1 Bytes, Flags = 0x00000001)
T3DBC 002:019.475   CPU_ReadMem(1 bytes @ 0x40053012)
T3DBC 002:020.182   Data:  FF
T3DBC 002:020.263 - 0.848ms returns 1 (0x1)
T3DBC 002:020.309 JLINK_ReadMemEx(0x40053013, 0x1 Bytes, Flags = 0x00000001)
T3DBC 002:020.347   CPU_ReadMem(1 bytes @ 0x40053013)
T3DBC 002:021.003   Data:  FF
T3DBC 002:021.060 - 0.765ms returns 1 (0x1)
T3DBC 002:021.101 JLINK_ReadMem(0x40053014, 0x2 Bytes, ...)
T3DBC 002:021.150   CPU_ReadMem(2 bytes @ 0x40053014)
T3DBC 002:021.767   Data:  FF FF
T3DBC 002:021.827 - 0.739ms returns 0
T3DBC 002:021.875 JLINK_ReadMemEx(0x40053016, 0x1 Bytes, Flags = 0x00000001)
T3DBC 002:021.911   CPU_ReadMem(1 bytes @ 0x40053016)
T3DBC 002:022.514   Data:  FF
T3DBC 002:022.569 - 0.708ms returns 1 (0x1)
T3DBC 002:022.609 JLINK_ReadMemEx(0x40053017, 0x1 Bytes, Flags = 0x00000001)
T3DBC 002:022.644   CPU_ReadMem(1 bytes @ 0x40053017)
T3DBC 002:023.276   Data:  FF
T3DBC 002:023.332 - 0.737ms returns 1 (0x1)
T3DBC 002:023.372 JLINK_ReadMem(0x40053018, 0xE8 Bytes, ...)
T3DBC 002:023.407   CPU_ReadMem(232 bytes @ 0x40053018)
T3DBC 002:027.042   Data:  FF FF FF FF FF FF FF FF 00 00 00 00 00 00 00 00 ...
T3DBC 002:027.284 - 3.935ms returns 0
T3DBC 002:027.387 JLINK_ReadMemEx(0x40053100, 0x1 Bytes, Flags = 0x00000001)
T3DBC 002:027.551   CPU_ReadMem(1 bytes @ 0x40053100)
T3DBC 002:028.375   Data:  FF
T3DBC 002:028.438 - 1.064ms returns 1 (0x1)
T3DBC 002:028.480 JLINK_ReadMemEx(0x40053101, 0x1 Bytes, Flags = 0x00000001)
T3DBC 002:028.516   CPU_ReadMem(1 bytes @ 0x40053101)
T3DBC 002:029.231   Data:  FF
T3DBC 002:029.286 - 0.820ms returns 1 (0x1)
T3DBC 002:029.325 JLINK_ReadMemEx(0x40053102, 0x1 Bytes, Flags = 0x00000001)
T3DBC 002:029.360   CPU_ReadMem(1 bytes @ 0x40053102)
T3DBC 002:030.105   Data:  FF
T3DBC 002:030.190 - 0.879ms returns 1 (0x1)
T3DBC 002:030.240 JLINK_ReadMemEx(0x40053103, 0x1 Bytes, Flags = 0x00000001)
T3DBC 002:030.287   CPU_ReadMem(1 bytes @ 0x40053103)
T3DBC 002:030.996   Data:  FF
T3DBC 002:031.078 - 0.851ms returns 1 (0x1)
T3DBC 002:031.127 JLINK_ReadMemEx(0x40053104, 0x1 Bytes, Flags = 0x00000001)
T3DBC 002:031.178   CPU_ReadMem(1 bytes @ 0x40053104)
T3DBC 002:032.132   Data:  FF
T3DBC 002:032.312 - 1.237ms returns 1 (0x1)
T3DBC 002:032.523 JLINK_ReadMemEx(0x40053105, 0x1 Bytes, Flags = 0x00000001)
T3DBC 002:032.669   CPU_ReadMem(1 bytes @ 0x40053105)
T3DBC 002:033.517   Data:  FF
T3DBC 002:033.594 - 1.084ms returns 1 (0x1)
T3DBC 002:033.632 JLINK_ReadMemEx(0x40053106, 0x1 Bytes, Flags = 0x00000001)
T3DBC 002:033.671   CPU_ReadMem(1 bytes @ 0x40053106)
T3DBC 002:034.297   Data:  FF
T3DBC 002:034.354 - 0.735ms returns 1 (0x1)
T3DBC 002:034.389 JLINK_ReadMemEx(0x40053107, 0x1 Bytes, Flags = 0x00000001)
T3DBC 002:034.422   CPU_ReadMem(1 bytes @ 0x40053107)
T3DBC 002:035.034   Data:  FF
T3DBC 002:035.089 - 0.713ms returns 1 (0x1)
T3DBC 002:035.123 JLINK_ReadMemEx(0x40053108, 0x1 Bytes, Flags = 0x00000001)
T3DBC 002:035.157   CPU_ReadMem(1 bytes @ 0x40053108)
T3DBC 002:035.765   Data:  FF
T3DBC 002:035.823 - 0.714ms returns 1 (0x1)
T3DBC 002:035.858 JLINK_ReadMemEx(0x40053109, 0x1 Bytes, Flags = 0x00000001)
T3DBC 002:035.917   CPU_ReadMem(1 bytes @ 0x40053109)
T3DBC 002:036.681   Data:  FF
T3DBC 002:036.756 - 0.911ms returns 1 (0x1)
T3DBC 002:036.795 JLINK_ReadMemEx(0x4005310A, 0x1 Bytes, Flags = 0x00000001)
T3DBC 002:036.833   CPU_ReadMem(1 bytes @ 0x4005310A)
T3DBC 002:037.760   Data:  FF
T3DBC 002:037.845 - 1.076ms returns 1 (0x1)
T3DBC 002:037.899 JLINK_ReadMemEx(0x4005310B, 0x1 Bytes, Flags = 0x00000001)
T3DBC 002:037.939   CPU_ReadMem(1 bytes @ 0x4005310B)
T3DBC 002:039.041   Data:  FF
T3DBC 002:039.184 - 1.300ms returns 1 (0x1)
T3DBC 002:039.239 JLINK_ReadMemEx(0x4005310C, 0x1 Bytes, Flags = 0x00000001)
T3DBC 002:039.280   CPU_ReadMem(1 bytes @ 0x4005310C)
T3DBC 002:040.210   Data:  FF
T3DBC 002:040.293 - 1.068ms returns 1 (0x1)
T3DBC 002:040.333 JLINK_ReadMemEx(0x4005310D, 0x1 Bytes, Flags = 0x00000001)
T3DBC 002:040.370   CPU_ReadMem(1 bytes @ 0x4005310D)
T3DBC 002:041.110   Data:  FF
T3DBC 002:041.196 - 0.877ms returns 1 (0x1)
T3DBC 002:041.238 JLINK_ReadMemEx(0x4005310E, 0x1 Bytes, Flags = 0x00000001)
T3DBC 002:041.280   CPU_ReadMem(1 bytes @ 0x4005310E)
T3DBC 002:041.962   Data:  FF
T3DBC 002:042.069 - 0.858ms returns 1 (0x1)
T3DBC 002:042.136 JLINK_ReadMemEx(0x4005310F, 0x1 Bytes, Flags = 0x00000001)
T3DBC 002:042.191   CPU_ReadMem(1 bytes @ 0x4005310F)
T3DBC 002:042.839   Data:  FF
T3DBC 002:042.944 - 0.838ms returns 1 (0x1)
T3DBC 002:042.997 JLINK_ReadMemEx(0x40053110, 0x1 Bytes, Flags = 0x00000001)
T3DBC 002:043.054   CPU_ReadMem(1 bytes @ 0x40053110)
T3DBC 002:043.822   Data:  FF
T3DBC 002:043.884 - 0.900ms returns 1 (0x1)
T3DBC 002:043.918 JLINK_ReadMemEx(0x40053111, 0x1 Bytes, Flags = 0x00000001)
T3DBC 002:043.951   CPU_ReadMem(1 bytes @ 0x40053111)
T3DBC 002:044.939   Data:  FF
T3DBC 002:045.050 - 1.158ms returns 1 (0x1)
T3DBC 002:045.101 JLINK_ReadMemEx(0x40053112, 0x1 Bytes, Flags = 0x00000001)
T3DBC 002:045.140   CPU_ReadMem(1 bytes @ 0x40053112)
T3DBC 002:046.213   Data:  FF
T3DBC 002:046.309 - 1.220ms returns 1 (0x1)
T3DBC 002:046.346 JLINK_ReadMemEx(0x40053113, 0x1 Bytes, Flags = 0x00000001)
T3DBC 002:046.408   CPU_ReadMem(1 bytes @ 0x40053113)
T3DBC 002:047.245   Data:  FF
T3DBC 002:047.328 - 0.994ms returns 1 (0x1)
T3DBC 002:047.367 JLINK_ReadMem(0x40053114, 0xEC Bytes, ...)
T3DBC 002:047.404   CPU_ReadMem(236 bytes @ 0x40053114)
T3DBC 002:050.991   Data:  FF FF FF FF FF FF FF FF FF FF FF FF 00 00 00 00 ...
T3DBC 002:051.095 - 3.844ms returns 0
T3DBC 002:070.235 JLINK_ReadMem(0x1FFE0180, 0x1 Bytes, ...)
T3DBC 002:070.351   CPU_ReadMem(64 bytes @ 0x1FFE0180)
T3DBC 002:071.827    -- Updating C cache (64 bytes @ 0x1FFE0180)
T3DBC 002:071.919    -- Read from C cache (1 bytes @ 0x1FFE0180)
T3DBC 002:071.958   Data:  02
T3DBC 002:071.997 - 1.776ms returns 0
T3DBC 002:075.391 JLINK_ReadMem(0x000020DC, 0x4 Bytes, ...)
T3DBC 002:075.715    -- Read from flash cache (4 bytes @ 0x000020DC)
T3DBC 002:075.788   Data:  08 B5 00 F0
T3DBC 002:075.854 - 0.492ms returns 0
T3DBC 002:107.454 JLINK_ReadReg(XPSR)
T3DBC 002:107.530 - 0.090ms returns 0x01000000
T3DBC 002:132.621 JLINK_GetNumBPUnits(Type = 0xFFFFFF00)
T3DBC 002:132.701 - 0.102ms returns 0x06
T3DBC 002:132.751 JLINK_GetNumWPUnits()
T3DBC 002:132.795 - 0.065ms returns 4
T3DBC 002:132.851 JLINK_GetNumWPUnits()
T3DBC 002:132.906 - 0.079ms returns 4
T3DBC 002:132.976 JLINK_GetNumBPUnits(Type = 0xFFFFFF00)
T3DBC 002:133.021 - 0.067ms returns 0x06
T3DBC 002:133.068 JLINK_GetNumWPUnits()
T3DBC 002:133.117 - 0.071ms returns 4
T3DBC 002:133.166 JLINK_GetNumWPUnits()
T3DBC 002:133.208 - 0.061ms returns 4
T3DBC 002:133.267 JLINK_GetNumBPUnits(Type = 0xFFFFFF00)
T3DBC 002:133.329 - 0.091ms returns 0x06
T3DBC 002:133.382 JLINK_GetNumWPUnits()
T3DBC 002:133.425 - 0.093ms returns 4
T3DBC 002:133.497 JLINK_GetNumWPUnits()
T3DBC 002:133.545 - 0.068ms returns 4
T3DBC 002:133.687 JLINK_SetBPEx(Addr = 0x000005B4, Type = 0xFFFFFF00)
T3DBC 002:133.757 - 0.090ms returns 0x00000001
T3DBC 002:135.308 JLINK_ClrBPEx(BPHandle = 0x00000001)
T3DBC 002:135.404 - 0.117ms returns 0x00
T3DBC 002:135.459 JLINK_SetBPEx(Addr = 0x000005B4, Type = 0xFFFFFF00)
T3DBC 002:135.506 - 0.068ms returns 0x00000002
T3DBC 002:135.552 JLINK_SetBPEx(Addr = 0x0000056A, Type = 0xFFFFFF00)
T3DBC 002:135.592 - 0.060ms returns 0x00000003
T3DBC 002:453.423 JLINK_ReadReg(XPSR)
T3DBC 002:453.512 - 0.110ms returns 0x01000000
T3DBC 002:469.087 JLINK_ReadMem(0x1FFE0180, 0x1 Bytes, ...)
T3DBC 002:469.209    -- Read from C cache (1 bytes @ 0x1FFE0180)
T3DBC 002:469.273   Data:  02
T3DBC 002:469.331 - 0.264ms returns 0
T3DBC 002:716.634 JLINK_ClrBPEx(BPHandle = 0x00000002)
T3DBC 002:717.432 - 0.841ms returns 0x00
T3DBC 002:717.528 JLINK_ClrBPEx(BPHandle = 0x00000003)
T3DBC 002:717.569 - 0.058ms returns 0x00
T3DBC 002:717.624 JLINK_SetBPEx(Addr = 0x000005B4, Type = 0xFFFFFF00)
T3DBC 002:717.657 - 0.045ms returns 0x00000004
T3DBC 002:717.686 JLINK_SetBPEx(Addr = 0x0000056A, Type = 0xFFFFFF00)
T3DBC 002:717.714 - 0.040ms returns 0x00000005
T3DBC 002:717.743 JLINK_SetBPEx(Addr = 0x00000618, Type = 0xFFFFFF00)
T3DBC 002:717.770 - 0.039ms returns 0x00000006
T3DBC 002:717.808 JLINK_ClrBPEx(BPHandle = 0x00000004)
T3DBC 002:717.835 - 0.041ms returns 0x00
T3DBC 002:717.865 JLINK_ClrBPEx(BPHandle = 0x00000005)
T3DBC 002:717.898 - 0.046ms returns 0x00
T3DBC 002:717.928 JLINK_ClrBPEx(BPHandle = 0x00000006)
T3DBC 002:717.954 - 0.039ms returns 0x00
T3DBC 002:717.987 JLINK_SetBPEx(Addr = 0x000005B4, Type = 0xFFFFFF00)
T3DBC 002:718.015 - 0.041ms returns 0x00000007
T3DBC 002:718.044 JLINK_SetBPEx(Addr = 0x0000056A, Type = 0xFFFFFF00)
T3DBC 002:718.070 - 0.040ms returns 0x00000008
T3DBC 002:720.824 JLINK_ClrBPEx(BPHandle = 0x00000007)
T3DBC 002:720.964 - 0.161ms returns 0x00
T3DBC 002:721.015 JLINK_ClrBPEx(BPHandle = 0x00000008)
T3DBC 002:721.057 - 0.065ms returns 0x00
T3DBC 002:721.119 JLINK_SetBPEx(Addr = 0x000005B4, Type = 0xFFFFFF00)
T3DBC 002:721.168 - 0.071ms returns 0x00000009
T3DBC 002:721.216 JLINK_SetBPEx(Addr = 0x0000056A, Type = 0xFFFFFF00)
T3DBC 002:721.262 - 0.067ms returns 0x0000000A
T3DBC 002:721.308 JLINK_SetBPEx(Addr = 0x00000618, Type = 0xFFFFFF00)
T3DBC 002:721.343 - 0.054ms returns 0x0000000B
T3DBC 002:762.588 JLINK_ReadRegs(NumRegs = 20, Indexes: 0, 1, 2, 3, 4, 5, 6, 7, 8, 9, 10, 11, 12, 13, 14, 15, 16, 17, 18, 20)
T3DBC 002:762.711    -- R0=0x00, R1=0x2400, R2=0x00, R3=0x4001C11C, R4=0x1FFE0904, R5=0x1FFE0924, R6=0x1FFE0924, R7=0x1FFE01FC, R8=0x1FFE01EC, R9=0x1FFE018C, R10=0x35A9F8EC, R11=0xC0998FD6, R12=0x1FFE0888, R13 (SP)=0x1FFE0850, R14=0xFFFFFFFF, R15 (PC)=0x20DC, XPSR=0x1000000, MSP=0x1FFE0850, PSP=0x1C128BF4, CFBP=0x00
T3DBC 002:762.786 - 0.217ms returns 0x00
T3DBC 002:763.263 JLINK_ReadMem(0x000020DC, 0x4 Bytes, ...)
T3DBC 002:763.341    -- Read from flash cache (4 bytes @ 0x000020DC)
T3DBC 002:763.441   Data:  08 B5 00 F0
T3DBC 002:763.515 - 0.293ms returns 0
T27CC 002:929.248 JLINK_GetNumBPUnits(Type = 0xFFFFFF00)
T27CC 002:929.340 - 0.115ms returns 0x06
T27CC 002:929.389 JLINK_GetNumWPUnits()
T27CC 002:929.429 - 0.060ms returns 4
T27CC 002:929.473 JLINK_GetNumWPUnits()
T27CC 002:929.510 - 0.056ms returns 4
T27CC 002:929.966 JLINK_GetNumBPUnits(Type = 0xFFFFFF00)
T27CC 002:930.038 - 0.094ms returns 0x06
T27CC 002:930.087 JLINK_GetNumWPUnits()
T27CC 002:930.126 - 0.213ms returns 4
T27CC 002:930.340 JLINK_GetNumWPUnits()
T27CC 002:930.378 - 0.057ms returns 4
T27CC 002:930.834 JLINK_GetNumBPUnits(Type = 0xFFFFFF00)
T27CC 002:930.914 - 0.099ms returns 0x06
T27CC 002:930.957 JLINK_GetNumWPUnits()
T27CC 002:930.995 - 0.057ms returns 4
T27CC 002:931.037 JLINK_GetNumWPUnits()
T27CC 002:931.071 - 0.050ms returns 4
T27CC 002:931.545 JLINK_GetNumBPUnits(Type = 0xFFFFFF00)
T27CC 002:931.617 - 0.092ms returns 0x06
T27CC 002:931.663 JLINK_GetNumWPUnits()
T27CC 002:931.698 - 0.060ms returns 4
T27CC 002:931.749 JLINK_GetNumWPUnits()
T27CC 002:931.799 - 0.068ms returns 4
T27CC 002:932.343 JLINK_GetNumBPUnits(Type = 0xFFFFFF00)
T27CC 002:932.423 - 0.098ms returns 0x06
T27CC 002:932.465 JLINK_GetNumWPUnits()
T27CC 002:932.503 - 0.056ms returns 4
T27CC 002:932.543 JLINK_GetNumWPUnits()
T27CC 002:932.577 - 0.050ms returns 4
T27CC 002:933.347 JLINK_GetNumBPUnits(Type = 0xFFFFFF00)
T27CC 002:933.426 - 0.092ms returns 0x06
T27CC 002:933.457 JLINK_GetNumWPUnits()
T27CC 002:933.482 - 0.038ms returns 4
T27CC 002:933.512 JLINK_GetNumWPUnits()
T27CC 002:933.537 - 0.037ms returns 4
T27CC 002:934.323 JLINK_GetNumBPUnits(Type = 0xFFFFFF00)
T27CC 002:934.386 - 0.083ms returns 0x06
T27CC 002:934.429 JLINK_GetNumWPUnits()
T27CC 002:934.466 - 0.055ms returns 4
T27CC 002:934.506 JLINK_GetNumWPUnits()
T27CC 002:934.555 - 0.066ms returns 4
T27CC 002:934.939 JLINK_GetNumBPUnits(Type = 0xFFFFFF00)
T27CC 002:935.006 - 0.082ms returns 0x06
T27CC 002:935.042 JLINK_GetNumWPUnits()
T27CC 002:935.069 - 0.039ms returns 4
T27CC 002:935.098 JLINK_GetNumWPUnits()
T27CC 002:935.129 - 0.046ms returns 4
T3DBC 003:419.333 JLINK_ReadReg(XPSR)
T3DBC 003:420.304 - 1.040ms returns 0x01000000
T3DBC 003:445.979 JLINK_ReadMem(0x1FFE0180, 0x1 Bytes, ...)
T3DBC 003:446.056    -- Read from C cache (1 bytes @ 0x1FFE0180)
T3DBC 003:446.121   Data:  02
T3DBC 003:446.173 - 0.212ms returns 0
T3DBC 003:454.589 JLINK_ReadReg(XPSR)
T3DBC 003:454.717 - 0.147ms returns 0x01000000
T3DBC 003:596.605 JLINK_ReadMem(0x40052ED0, 0x130 Bytes, ...)
T3DBC 003:596.700   CPU_ReadMem(304 bytes @ 0x40052ED0)
T3DBC 003:601.042   Data:  00 00 00 00 00 00 00 00 00 00 00 00 00 00 00 00 ...
T3DBC 003:601.120 - 4.529ms returns 0
T3DBC 003:601.168 JLINK_ReadMemEx(0x40053000, 0x1 Bytes, Flags = 0x00000001)
T3DBC 003:601.219   CPU_ReadMem(1 bytes @ 0x40053000)
T3DBC 003:601.808   Data:  FF
T3DBC 003:601.878 - 0.733ms returns 1 (0x1)
T3DBC 003:601.934 JLINK_ReadMemEx(0x40053001, 0x1 Bytes, Flags = 0x00000001)
T3DBC 003:601.980   CPU_ReadMem(1 bytes @ 0x40053001)
T3DBC 003:602.580   Data:  FF
T3DBC 003:602.694 - 0.779ms returns 1 (0x1)
T3DBC 003:602.752 JLINK_ReadMemEx(0x40053002, 0x1 Bytes, Flags = 0x00000001)
T3DBC 003:602.807   CPU_ReadMem(1 bytes @ 0x40053002)
T3DBC 003:603.490   Data:  FF
T3DBC 003:603.543 - 0.804ms returns 1 (0x1)
T3DBC 003:603.582 JLINK_ReadMemEx(0x40053003, 0x1 Bytes, Flags = 0x00000001)
T3DBC 003:603.614   CPU_ReadMem(1 bytes @ 0x40053003)
T3DBC 003:604.185   Data:  FF
T3DBC 003:604.246 - 0.677ms returns 1 (0x1)
T3DBC 003:604.282 JLINK_ReadMemEx(0x40053004, 0x1 Bytes, Flags = 0x00000001)
T3DBC 003:604.313   CPU_ReadMem(1 bytes @ 0x40053004)
T3DBC 003:604.898   Data:  FF
T3DBC 003:604.944 - 0.674ms returns 1 (0x1)
T3DBC 003:604.979 JLINK_ReadMemEx(0x40053005, 0x1 Bytes, Flags = 0x00000001)
T3DBC 003:605.010   CPU_ReadMem(1 bytes @ 0x40053005)
T3DBC 003:605.586   Data:  FF
T3DBC 003:605.643 - 0.676ms returns 1 (0x1)
T3DBC 003:605.679 JLINK_ReadMemEx(0x40053006, 0x1 Bytes, Flags = 0x00000001)
T3DBC 003:605.711   CPU_ReadMem(1 bytes @ 0x40053006)
T3DBC 003:606.300   Data:  FF
T3DBC 003:606.350 - 0.683ms returns 1 (0x1)
T3DBC 003:606.388 JLINK_ReadMemEx(0x40053007, 0x1 Bytes, Flags = 0x00000001)
T3DBC 003:606.421   CPU_ReadMem(1 bytes @ 0x40053007)
T3DBC 003:607.013   Data:  FF
T3DBC 003:607.075 - 0.699ms returns 1 (0x1)
T3DBC 003:607.111 JLINK_ReadMemEx(0x40053008, 0x1 Bytes, Flags = 0x00000001)
T3DBC 003:607.143   CPU_ReadMem(1 bytes @ 0x40053008)
T3DBC 003:607.739   Data:  FF
T3DBC 003:607.821 - 0.742ms returns 1 (0x1)
T3DBC 003:607.892 JLINK_ReadMemEx(0x40053009, 0x1 Bytes, Flags = 0x00000001)
T3DBC 003:607.944   CPU_ReadMem(1 bytes @ 0x40053009)
T3DBC 003:608.568   Data:  FF
T3DBC 003:608.618 - 0.738ms returns 1 (0x1)
T3DBC 003:608.657 JLINK_ReadMemEx(0x4005300A, 0x1 Bytes, Flags = 0x00000001)
T3DBC 003:608.691   CPU_ReadMem(1 bytes @ 0x4005300A)
T3DBC 003:609.271   Data:  FF
T3DBC 003:609.343 - 0.699ms returns 1 (0x1)
T3DBC 003:609.612 JLINK_ReadMemEx(0x4005300B, 0x1 Bytes, Flags = 0x00000001)
T3DBC 003:609.695   CPU_ReadMem(1 bytes @ 0x4005300B)
T3DBC 003:610.644   Data:  FF
T3DBC 003:610.741 - 1.354ms returns 1 (0x1)
T3DBC 003:610.789 JLINK_ReadMemEx(0x4005300C, 0x1 Bytes, Flags = 0x00000001)
T3DBC 003:610.863   CPU_ReadMem(1 bytes @ 0x4005300C)
T3DBC 003:611.602   Data:  FF
T3DBC 003:611.685 - 0.909ms returns 1 (0x1)
T3DBC 003:611.749 JLINK_ReadMemEx(0x4005300D, 0x1 Bytes, Flags = 0x00000001)
T3DBC 003:611.825   CPU_ReadMem(1 bytes @ 0x4005300D)
T3DBC 003:612.516   Data:  FF
T3DBC 003:612.565 - 0.828ms returns 1 (0x1)
T3DBC 003:612.606 JLINK_ReadMemEx(0x4005300E, 0x1 Bytes, Flags = 0x00000001)
T3DBC 003:612.648   CPU_ReadMem(1 bytes @ 0x4005300E)
T3DBC 003:613.240   Data:  FF
T3DBC 003:613.288 - 0.694ms returns 1 (0x1)
T3DBC 003:613.328 JLINK_ReadMemEx(0x4005300F, 0x1 Bytes, Flags = 0x00000001)
T3DBC 003:613.371   CPU_ReadMem(1 bytes @ 0x4005300F)
T3DBC 003:613.952   Data:  FF
T3DBC 003:614.004 - 0.688ms returns 1 (0x1)
T3DBC 003:614.045 JLINK_ReadMemEx(0x40053010, 0x1 Bytes, Flags = 0x00000001)
T3DBC 003:614.089   CPU_ReadMem(1 bytes @ 0x40053010)
T3DBC 003:614.649   Data:  FF
T3DBC 003:614.709 - 0.676ms returns 1 (0x1)
T3DBC 003:614.748 JLINK_ReadMemEx(0x40053011, 0x1 Bytes, Flags = 0x00000001)
T3DBC 003:614.789   CPU_ReadMem(1 bytes @ 0x40053011)
T3DBC 003:615.425   Data:  FF
T3DBC 003:615.496 - 0.761ms returns 1 (0x1)
T3DBC 003:615.535 JLINK_ReadMemEx(0x40053012, 0x1 Bytes, Flags = 0x00000001)
T3DBC 003:615.577   CPU_ReadMem(1 bytes @ 0x40053012)
T3DBC 003:616.152   Data:  FF
T3DBC 003:616.217 - 0.694ms returns 1 (0x1)
T3DBC 003:616.258 JLINK_ReadMemEx(0x40053013, 0x1 Bytes, Flags = 0x00000001)
T3DBC 003:616.301   CPU_ReadMem(1 bytes @ 0x40053013)
T3DBC 003:616.893   Data:  FF
T3DBC 003:616.963 - 0.718ms returns 1 (0x1)
T3DBC 003:617.001 JLINK_ReadMem(0x40053014, 0x2 Bytes, ...)
T3DBC 003:617.035   CPU_ReadMem(2 bytes @ 0x40053014)
T3DBC 003:617.601   Data:  FF FF
T3DBC 003:617.665 - 0.676ms returns 0
T3DBC 003:617.704 JLINK_ReadMemEx(0x40053016, 0x1 Bytes, Flags = 0x00000001)
T3DBC 003:617.736   CPU_ReadMem(1 bytes @ 0x40053016)
T3DBC 003:618.306   Data:  FF
T3DBC 003:618.366 - 0.674ms returns 1 (0x1)
T3DBC 003:618.402 JLINK_ReadMemEx(0x40053017, 0x1 Bytes, Flags = 0x00000001)
T3DBC 003:618.432   CPU_ReadMem(1 bytes @ 0x40053017)
T3DBC 003:619.001   Data:  FF
T3DBC 003:619.082 - 0.700ms returns 1 (0x1)
T3DBC 003:619.135 JLINK_ReadMem(0x40053018, 0xE8 Bytes, ...)
T3DBC 003:619.182   CPU_ReadMem(232 bytes @ 0x40053018)
T3DBC 003:622.702   Data:  FF FF FF FF FF FF FF FF 00 00 00 00 00 00 00 00 ...
T3DBC 003:622.939 - 3.845ms returns 0
T3DBC 003:623.027 JLINK_ReadMemEx(0x40053100, 0x1 Bytes, Flags = 0x00000001)
T3DBC 003:623.087   CPU_ReadMem(1 bytes @ 0x40053100)
T3DBC 003:623.745   Data:  FF
T3DBC 003:623.802 - 0.789ms returns 1 (0x1)
T3DBC 003:623.844 JLINK_ReadMemEx(0x40053101, 0x1 Bytes, Flags = 0x00000001)
T3DBC 003:623.934   CPU_ReadMem(1 bytes @ 0x40053101)
T3DBC 003:624.525   Data:  FF
T3DBC 003:624.588 - 0.756ms returns 1 (0x1)
T3DBC 003:624.626 JLINK_ReadMemEx(0x40053102, 0x1 Bytes, Flags = 0x00000001)
T3DBC 003:624.658   CPU_ReadMem(1 bytes @ 0x40053102)
T3DBC 003:625.227   Data:  FF
T3DBC 003:625.287 - 0.674ms returns 1 (0x1)
T3DBC 003:625.324 JLINK_ReadMemEx(0x40053103, 0x1 Bytes, Flags = 0x00000001)
T3DBC 003:625.355   CPU_ReadMem(1 bytes @ 0x40053103)
T3DBC 003:625.933   Data:  FF
T3DBC 003:626.050 - 0.758ms returns 1 (0x1)
T3DBC 003:626.798 JLINK_ReadMemEx(0x40053104, 0x1 Bytes, Flags = 0x00000001)
T3DBC 003:627.348   CPU_ReadMem(1 bytes @ 0x40053104)
T3DBC 003:628.038   Data:  FF
T3DBC 003:628.106 - 1.321ms returns 1 (0x1)
T3DBC 003:628.152 JLINK_ReadMemEx(0x40053105, 0x1 Bytes, Flags = 0x00000001)
T3DBC 003:628.195   CPU_ReadMem(1 bytes @ 0x40053105)
T3DBC 003:628.776   Data:  FF
T3DBC 003:628.836 - 0.696ms returns 1 (0x1)
T3DBC 003:628.875 JLINK_ReadMemEx(0x40053106, 0x1 Bytes, Flags = 0x00000001)
T3DBC 003:628.920   CPU_ReadMem(1 bytes @ 0x40053106)
T3DBC 003:629.472   Data:  FF
T3DBC 003:629.535 - 0.672ms returns 1 (0x1)
T3DBC 003:629.575 JLINK_ReadMemEx(0x40053107, 0x1 Bytes, Flags = 0x00000001)
T3DBC 003:629.616   CPU_ReadMem(1 bytes @ 0x40053107)
T3DBC 003:630.183   Data:  FF
T3DBC 003:630.243 - 0.681ms returns 1 (0x1)
T3DBC 003:630.288 JLINK_ReadMemEx(0x40053108, 0x1 Bytes, Flags = 0x00000001)
T3DBC 003:630.330   CPU_ReadMem(1 bytes @ 0x40053108)
T3DBC 003:630.909   Data:  FF
T3DBC 003:630.981 - 0.713ms returns 1 (0x1)
T3DBC 003:631.040 JLINK_ReadMemEx(0x40053109, 0x1 Bytes, Flags = 0x00000001)
T3DBC 003:631.088   CPU_ReadMem(1 bytes @ 0x40053109)
T3DBC 003:631.676   Data:  FF
T3DBC 003:631.738 - 0.716ms returns 1 (0x1)
T3DBC 003:631.794 JLINK_ReadMemEx(0x4005310A, 0x1 Bytes, Flags = 0x00000001)
T3DBC 003:631.843   CPU_ReadMem(1 bytes @ 0x4005310A)
T3DBC 003:632.430   Data:  FF
T3DBC 003:632.505 - 0.730ms returns 1 (0x1)
T3DBC 003:632.575 JLINK_ReadMemEx(0x4005310B, 0x1 Bytes, Flags = 0x00000001)
T3DBC 003:632.632   CPU_ReadMem(1 bytes @ 0x4005310B)
T3DBC 003:633.223   Data:  FF
T3DBC 003:633.288 - 0.726ms returns 1 (0x1)
T3DBC 003:633.334 JLINK_ReadMemEx(0x4005310C, 0x1 Bytes, Flags = 0x00000001)
T3DBC 003:633.377   CPU_ReadMem(1 bytes @ 0x4005310C)
T3DBC 003:633.946   Data:  FF
T3DBC 003:633.996 - 0.675ms returns 1 (0x1)
T3DBC 003:634.043 JLINK_ReadMemEx(0x4005310D, 0x1 Bytes, Flags = 0x00000001)
T3DBC 003:634.087   CPU_ReadMem(1 bytes @ 0x4005310D)
T3DBC 003:634.650   Data:  FF
T3DBC 003:634.711 - 0.680ms returns 1 (0x1)
T3DBC 003:634.751 JLINK_ReadMemEx(0x4005310E, 0x1 Bytes, Flags = 0x00000001)
T3DBC 003:634.797   CPU_ReadMem(1 bytes @ 0x4005310E)
T3DBC 003:635.430   Data:  FF
T3DBC 003:635.707 - 0.982ms returns 1 (0x1)
T3DBC 003:635.776 JLINK_ReadMemEx(0x4005310F, 0x1 Bytes, Flags = 0x00000001)
T3DBC 003:635.855   CPU_ReadMem(1 bytes @ 0x4005310F)
T3DBC 003:636.479   Data:  FF
T3DBC 003:636.541 - 0.778ms returns 1 (0x1)
T3DBC 003:636.579 JLINK_ReadMemEx(0x40053110, 0x1 Bytes, Flags = 0x00000001)
T3DBC 003:636.613   CPU_ReadMem(1 bytes @ 0x40053110)
T3DBC 003:637.199   Data:  FF
T3DBC 003:637.247 - 0.680ms returns 1 (0x1)
T3DBC 003:637.284 JLINK_ReadMemEx(0x40053111, 0x1 Bytes, Flags = 0x00000001)
T3DBC 003:637.315   CPU_ReadMem(1 bytes @ 0x40053111)
T3DBC 003:637.896   Data:  FF
T3DBC 003:637.957 - 0.686ms returns 1 (0x1)
T3DBC 003:637.993 JLINK_ReadMemEx(0x40053112, 0x1 Bytes, Flags = 0x00000001)
T3DBC 003:638.025   CPU_ReadMem(1 bytes @ 0x40053112)
T3DBC 003:638.590   Data:  FF
T3DBC 003:638.645 - 0.664ms returns 1 (0x1)
T3DBC 003:638.681 JLINK_ReadMemEx(0x40053113, 0x1 Bytes, Flags = 0x00000001)
T3DBC 003:638.712   CPU_ReadMem(1 bytes @ 0x40053113)
T3DBC 003:639.266   Data:  FF
T3DBC 003:639.327 - 0.658ms returns 1 (0x1)
T3DBC 003:639.369 JLINK_ReadMem(0x40053114, 0xEC Bytes, ...)
T3DBC 003:639.400   CPU_ReadMem(236 bytes @ 0x40053114)
T3DBC 003:642.945   Data:  FF FF FF FF FF FF FF FF FF FF FF FF 00 00 00 00 ...
T3DBC 003:643.041 - 3.691ms returns 0
T3DBC 004:173.406 JLINK_STRACE_Read(..., NumItems = 0x10000)
T3DBC 004:173.928 - 0.569ms NumItemsRead = 0x00
T3DBC 004:174.020 JLINK_IsHalted()
T3DBC 004:174.612 - 0.665ms returns TRUE
T3DBC 004:174.712 JLINK_GoEx(MaxEmulInsts = 0, Flags = 0x01)
T3DBC 004:174.761   CPU_WriteMem(4 bytes @ 0xE0002000)
T3DBC 004:175.495   CPU_WriteMem(4 bytes @ 0xE0002000)
T3DBC 004:177.347   CPU_WriteMem(4 bytes @ 0xE0002000)
T3DBC 004:178.168   CPU_ReadMem(4 bytes @ 0xE0001000)
T3DBC 004:178.965   CPU_WriteMem(4 bytes @ 0xE0002008)
T3DBC 004:179.073   CPU_WriteMem(4 bytes @ 0xE000200C)
T3DBC 004:179.154   CPU_WriteMem(4 bytes @ 0xE0002010)
T3DBC 004:179.726   CPU_WriteMem(4 bytes @ 0xE0002014)
T3DBC 004:179.950   CPU_WriteMem(4 bytes @ 0xE0002018)
T3DBC 004:180.016   CPU_WriteMem(4 bytes @ 0xE000201C)
T3DBC 004:183.919   CPU_WriteMem(4 bytes @ 0xE0001004)
T3DBC 004:185.449 - 10.805ms
T3DBC 004:281.739 JLINK_IsHalted()
T3DBC 004:286.799 - 5.109ms returns TRUE
T3DBC 004:286.873 JLINK_ReadReg(XPSR)
T3DBC 004:286.909 - 0.049ms returns 0x61000000
T3DBC 004:286.939 JLINK_ReadReg(R15 (PC))
T3DBC 004:286.965 - 0.038ms returns 0x00000618
T3DBC 004:287.000 JLINK_ReadReg(XPSR)
T3DBC 004:287.026 - 0.038ms returns 0x61000000
T3DBC 004:287.055 JLINK_ReadReg(XPSR)
T3DBC 004:287.080 - 0.037ms returns 0x61000000
T3DBC 004:287.108 JLINK_ReadReg(R15 (PC))
T3DBC 004:287.133 - 0.039ms returns 0x00000618
T3DBC 004:287.182 JLINK_ReadReg(XPSR)
T3DBC 004:287.217 - 0.048ms returns 0x61000000
T3DBC 004:287.246 JLINK_ReadReg(XPSR)
T3DBC 004:287.272 - 0.037ms returns 0x61000000
T3DBC 004:287.300 JLINK_ReadMem(0x00000618, 0x1 Bytes, ...)
T3DBC 004:287.328    -- Read from flash cache (1 bytes @ 0x00000618)
T3DBC 004:287.366   Data:  08
T3DBC 004:287.403 - 0.115ms returns 0
T3DBC 004:287.432 JLINK_IsHalted()
T3DBC 004:287.457 - 0.037ms returns TRUE
T3DBC 004:287.485 JLINK_ReadReg(XPSR)
T3DBC 004:287.510 - 0.037ms returns 0x61000000
T3DBC 004:287.538 JLINK_ReadReg(XPSR)
T3DBC 004:287.563 - 0.061ms returns 0x61000000
T3DBC 004:287.615 JLINK_ReadReg(R15 (PC))
T3DBC 004:287.641 - 0.038ms returns 0x00000618
T3DBC 004:287.674 JLINK_ReadReg(XPSR)
T3DBC 004:287.700 - 0.038ms returns 0x61000000
T3DBC 004:287.728 JLINK_ReadReg(XPSR)
T3DBC 004:287.761 - 0.059ms returns 0x61000000
T3DBC 004:287.819 JLINK_ReadMem(0x00000618, 0x1 Bytes, ...)
T3DBC 004:287.870    -- Read from flash cache (1 bytes @ 0x00000618)
T3DBC 004:287.910   Data:  08
T3DBC 004:287.947 - 0.140ms returns 0
T3DBC 004:288.897 JLINK_ReadRegs(NumRegs = 20, Indexes: 0, 1, 2, 3, 4, 5, 6, 7, 8, 9, 10, 11, 12, 13, 14, 15, 16, 17, 18, 20)
T3DBC 004:288.974    -- R0=0x00, R1=0x11F, R2=0x23FA, R3=0x60, R4=0x1FFE0904, R5=0x1FFE0924, R6=0x1FFE0924, R7=0x1FFE01FC, R8=0x1FFE01EC, R9=0x1FFE018C, R10=0x35A9F8EC, R11=0xC0998FD6, R12=0x0C, R13 (SP)=0x1FFE0848, R14=0x20E7, R15 (PC)=0x618, XPSR=0x61000000, MSP=0x1FFE0848, PSP=0x1C128BF4, CFBP=0x00
T3DBC 004:289.028 - 0.143ms returns 0x00
T3DBC 004:289.363 JLINK_ReadMem(0x00000618, 0x4 Bytes, ...)
T3DBC 004:289.427    -- Read from flash cache (4 bytes @ 0x00000618)
T3DBC 004:289.503   Data:  08 B5 FF F7
T3DBC 004:289.562 - 0.237ms returns 0
T3DBC 004:296.328 JLINK_ClrBPEx(BPHandle = 0x00000009)
T3DBC 004:296.421 - 0.114ms returns 0x00
T3DBC 004:296.468 JLINK_ClrBPEx(BPHandle = 0x0000000A)
T3DBC 004:296.511 - 0.062ms returns 0x00
T3DBC 004:296.555 JLINK_ClrBPEx(BPHandle = 0x0000000B)
T3DBC 004:296.601 - 0.066ms returns 0x00
T3DBC 004:296.656 JLINK_SetBPEx(Addr = 0x000005B4, Type = 0xFFFFFF00)
T3DBC 004:296.702 - 0.063ms returns 0x0000000C
T3DBC 004:296.747 JLINK_SetBPEx(Addr = 0x0000056A, Type = 0xFFFFFF00)
T3DBC 004:296.786 - 0.059ms returns 0x0000000D
T3DBC 004:300.308 JLINK_ReadMem(0x40052ED0, 0x130 Bytes, ...)
T3DBC 004:300.421   CPU_ReadMem(304 bytes @ 0x40052ED0)
T3DBC 004:304.844   Data:  00 00 00 00 00 00 00 00 00 00 00 00 00 00 00 00 ...
T3DBC 004:304.921 - 4.626ms returns 0
T3DBC 004:304.959 JLINK_ReadMemEx(0x40053000, 0x1 Bytes, Flags = 0x00000001)
T3DBC 004:304.998   CPU_ReadMem(1 bytes @ 0x40053000)
T3DBC 004:305.641   Data:  FF
T3DBC 004:305.697 - 0.751ms returns 1 (0x1)
T3DBC 004:305.732 JLINK_ReadMemEx(0x40053001, 0x1 Bytes, Flags = 0x00000001)
T3DBC 004:305.766   CPU_ReadMem(1 bytes @ 0x40053001)
T3DBC 004:306.456   Data:  FF
T3DBC 004:306.512 - 0.807ms returns 1 (0x1)
T3DBC 004:306.562 JLINK_ReadMemEx(0x40053002, 0x1 Bytes, Flags = 0x00000001)
T3DBC 004:306.609   CPU_ReadMem(1 bytes @ 0x40053002)
T3DBC 004:307.229   Data:  FF
T3DBC 004:307.284 - 0.736ms returns 1 (0x1)
T3DBC 004:307.322 JLINK_ReadMemEx(0x40053003, 0x1 Bytes, Flags = 0x00000001)
T3DBC 004:307.365   CPU_ReadMem(1 bytes @ 0x40053003)
T3DBC 004:307.977   Data:  FF
T3DBC 004:308.045 - 0.735ms returns 1 (0x1)
T3DBC 004:308.081 JLINK_ReadMemEx(0x40053004, 0x1 Bytes, Flags = 0x00000001)
T3DBC 004:308.114   CPU_ReadMem(1 bytes @ 0x40053004)
T3DBC 004:308.755   Data:  FF
T3DBC 004:308.818 - 0.750ms returns 1 (0x1)
T3DBC 004:308.856 JLINK_ReadMemEx(0x40053005, 0x1 Bytes, Flags = 0x00000001)
T3DBC 004:308.890   CPU_ReadMem(1 bytes @ 0x40053005)
T3DBC 004:309.479   Data:  FF
T3DBC 004:309.545 - 0.701ms returns 1 (0x1)
T3DBC 004:309.602 JLINK_ReadMemEx(0x40053006, 0x1 Bytes, Flags = 0x00000001)
T3DBC 004:309.637   CPU_ReadMem(1 bytes @ 0x40053006)
T3DBC 004:310.227   Data:  FF
T3DBC 004:310.314 - 0.732ms returns 1 (0x1)
T3DBC 004:310.375 JLINK_ReadMemEx(0x40053007, 0x1 Bytes, Flags = 0x00000001)
T3DBC 004:310.477   CPU_ReadMem(1 bytes @ 0x40053007)
T3DBC 004:311.438   Data:  FF
T3DBC 004:311.847 - 1.632ms returns 1 (0x1)
T3DBC 004:312.103 JLINK_ReadMemEx(0x40053008, 0x1 Bytes, Flags = 0x00000001)
T3DBC 004:312.231   CPU_ReadMem(1 bytes @ 0x40053008)
T3DBC 004:313.375   Data:  FF
T3DBC 004:313.472 - 1.392ms returns 1 (0x1)
T3DBC 004:313.531 JLINK_ReadMemEx(0x40053009, 0x1 Bytes, Flags = 0x00000001)
T3DBC 004:313.596   CPU_ReadMem(1 bytes @ 0x40053009)
T3DBC 004:314.315   Data:  FF
T3DBC 004:314.375 - 0.856ms returns 1 (0x1)
T3DBC 004:314.419 JLINK_ReadMemEx(0x4005300A, 0x1 Bytes, Flags = 0x00000001)
T3DBC 004:314.467   CPU_ReadMem(1 bytes @ 0x4005300A)
T3DBC 004:315.064   Data:  FF
T3DBC 004:315.127 - 0.720ms returns 1 (0x1)
T3DBC 004:315.168 JLINK_ReadMemEx(0x4005300B, 0x1 Bytes, Flags = 0x00000001)
T3DBC 004:315.206   CPU_ReadMem(1 bytes @ 0x4005300B)
T3DBC 004:315.836   Data:  FF
